
T00F8 000:277 SEGGER J-Link V4.50l Log File (0000ms, 0277ms total)
T00F8 000:277 DLL Compiled: Jul  9 2012 15:02:49 (0000ms, 0277ms total)
T00F8 000:277 Logging started @ 2013-05-30 14:38 (0000ms, 0277ms total)
T00F8 000:277 JLINK_SetWarnOutHandler(...) (0000ms, 0277ms total)
T00F8 000:277 JLINK_OpenEx(...)
Firmware: J-Link ARM V8 compiled Jun 19 2012 11:29:30
Hardware: V8.00
S/N: 20100213
Feature(s): RDI,FlashDL,FlashBP,JFlash,GDBFULL  returns O.K. (0028ms, 0305ms total)
T00F8 000:305 JLINK_SetErrorOutHandler(...) (0000ms, 0305ms total)
T00F8 000:305 JLINK_ExecCommand("Device = LPC11C14/301", ...)
                JLINK_ExecCommand("map ram 0x10000000 - 0x10001FFF", ...)  returns 0x00 (0000ms, 0000ms total)
                JLINK_AddMirrorAreaEx(Addr = 0x00000000, Size = 0x00000000) (0000ms, 0000ms total)
              Device "LPC11C14/301" selected (32 KB flash, 8 KB RAM).  returns 0x00 (0002ms, 0307ms total)
T00F8 000:307 JLINK_ExecCommand("ProjectFile = "D:\app\MicroOS_ARM\HBTK-XQ\1.2\debug\JLinkSettings.ini"", ...)  returns 0x00 (0000ms, 0307ms total)
T00F8 000:309 JLINK_ExecCommand("DisableConnectionTimeout", ...)  returns 0x00 (0000ms, 0307ms total)
T00F8 000:309 JLINK_TIF_Select(JLINKARM_TIF_SWD)  returns 0x00 (0005ms, 0312ms total)
T00F8 000:314 JLINK_SetSpeed(1000) (0001ms, 0313ms total)
T00F8 000:315 JLINK_GetHardwareVersion()  returns 0x13880 (0000ms, 0313ms total)
T00F8 000:315 JLINK_GetDLLVersion()  returns 45012 (0000ms, 0313ms total)
T00F8 000:315 JLINK_GetFirmwareString(...) (0000ms, 0313ms total)
T00F8 000:317 JLINK_GetDLLVersion()  returns 45012 (0000ms, 0313ms total)
T00F8 000:317 JLINK_GetCompileDateTime() (0000ms, 0313ms total)
T00F8 000:318 JLINK_GetFirmwareString(...) (0000ms, 0313ms total)
T00F8 000:319 JLINK_GetHardwareVersion()  returns 0x13880 (0000ms, 0313ms total)
T00F8 000:323 JLINK_GetId() >0x108 TIF>Found SWD-DP with ID 0x0BB11477 >0x0D TIF> >0x21 TIF> >0x0D TIF> >0x28 TIF> >0x0D TIF> >0x28 TIF> >0x0D TIF> >0x21 TIF> >0x0D TIF> >0x21 TIF> >0x0D TIF> >0x28 TIF> >0x0D TIF> >0x21 TIF> >0x0D TIF> >0x21 TIF> >0x0D TIF> >0x21 TIF> >0x0D TIF> >0x21 TIF> >0x0D TIF> >0x21 TIF> >0x0D TIF> >0x28 TIF> >0x0D TIF> >0x28 TIF> >0x0D TIF> >0x21 TIF> >0x0D TIF> >0x21 TIF> >0x0D TIF> >0x28 TIF> >0x0D TIF> >0x21 TIF> >0x0D TIF> >0x21 TIF> >0x0D TIF> >0x28 TIF> >0x0D TIF>
 >0x21 TIF> >0x0D TIF> >0x21 TIF> >0x0D TIF> >0x28 TIF> >0x0D TIF> >0x28 TIF> >0x0D TIF> >0x28 TIF> >0x0D TIF> >0x21 TIF> >0x0D TIF> >0x21 TIF> >0x0D TIF> >0x28 TIF> >0x0D TIF> >0x28 TIF> >0x0D TIF> >0x28 TIF> >0x0D TIF> >0x28 TIF> >0x0D TIF> >0x28 TIF> >0x0D TIF> >0x21 TIF> >0x0D TIF> >0x21 TIF> >0x0D TIF> >0x21 TIF> >0x0D TIF> >0x28 TIF> >0x0D TIF> >0x21 TIF> >0x0D TIF> >0x21 TIF> >0x0D TIF> >0x28 TIF> >0x0D TIF> >0x21 TIF> >0x0D TIF> >0x21 TIF>FPUnit: 4 code (BP) slots and 0 literal slots >0x0D TIF>
 >0x28 TIF> >0x0D TIF> >0x21 TIF> >0x0D TIF> >0x21 TIF> >0x0D TIF> >0x28 TIF> >0x0D TIF> >0x28 TIF> >0x0D TIF> >0x28 TIF> >0x0D TIF> >0x21 TIF> >0x0D TIF> >0x21 TIF> >0x0D TIF> >0x28 TIF> >0x0D TIF> >0x21 TIF> >0x0D TIF> >0x21 TIF> >0x0D TIF> >0x28 TIF> >0x0D TIF> >0x21 TIF> >0x0D TIF> >0x21 TIF>Found Cortex-M0 r0p0, Little endian. >0x0D TIF> >0x21 TIF>  returns 0x0BB11477 (0117ms, 0430ms total)
T00F8 000:440 JLINK_GetDebugInfo(0x100) -- Value=0xE00FF003  returns 0x00 (0000ms, 0430ms total)
T00F8 000:441 JLINK_ReadMem (0xE00FFFF0, 0x0010 Bytes, ...) -- CPU is running -- CPU_ReadMem(16 bytes @ 0xE00FFFF0) -- Data:  0D 00 00 00 10 00 00 00 05 00 00 00 B1 00 00 00  returns 0x00 (0002ms, 0432ms total)
T00F8 000:443 JLINK_ReadMem (0xE00FFFD0, 0x0020 Bytes, ...) -- CPU is running -- CPU_ReadMem(32 bytes @ 0xE00FFFD0) -- Data:  04 00 00 00 00 00 00 00 00 00 00 00 00 00 00 00 ...  returns 0x00 (0002ms, 0434ms total)
T00F8 000:445 JLINK_ReadMem (0xE00FF000, 0x0018 Bytes, ...) -- CPU is running -- CPU_ReadMem(24 bytes @ 0xE00FF000) -- Data:  03 F0 F0 FF 03 20 F0 FF 03 30 F0 FF 00 00 00 00 ...  returns 0x00 (0002ms, 0436ms total)
T00F8 000:447 JLINK_ReadMemU32(0xE000ED00, 0x0001 Items, ...) -- CPU is running -- CPU_ReadMem(4 bytes @ 0xE000ED00) -- Data:  00 C2 0C 41  returns 0x01 (0001ms, 0437ms total)
T00F8 000:448 JLINK_SetResetType(JLINKARM_RESET_TYPE_NORMAL)  returns JLINKARM_RESET_TYPE_NORMAL (0000ms, 0437ms total)
T00F8 000:448 JLINK_Reset() -- CPU is running -- CPU_WriteMem(4 bytes @ 0xE000EDF0) -- CPU is running -- CPU_WriteMem(4 bytes @ 0xE000EDFC) >0x35 TIF> -- CPU is running -- CPU_WriteMem(4 bytes @ 0xE000ED0C) -- CPU is running -- CPU_ReadMem(4 bytes @ 0xE000EDF0) -- CPU is running -- CPU_ReadMem(4 bytes @ 0xE000EDF0) -- CPU is running -- CPU_WriteMem(4 bytes @ 0xE000EDF0) -- CPU is running -- CPU_WriteMem(4 bytes @ 0xE000EDFC) -- CPU is running -- CPU_ReadMem(4 bytes @ 0xE000EDF0)
 -- CPU_WriteMem(4 bytes @ 0xE000EDFC) -- CPU_WriteMem(4 bytes @ 0xE000EDFC) -- CPU_WriteMem(4 bytes @ 0xE000EDFC) -- CPU_WriteMem(4 bytes @ 0xE0001020) -- CPU_WriteMem(4 bytes @ 0xE0001024) -- CPU_WriteMem(4 bytes @ 0xE0001028) -- CPU_WriteMem(4 bytes @ 0xE000EDFC) -- CPU_WriteMem(4 bytes @ 0xE0001028) -- CPU_ReadMem(4 bytes @ 0x00000004) -- CPU_WriteMem(4 bytes @ 0xE0002000) (0143ms, 0580ms total)
T00F8 000:591 JLINK_Halt()  returns 0x00 (0000ms, 0580ms total)
T00F8 000:591 JLINK_IsHalted()  returns TRUE (0001ms, 0581ms total)
T00F8 000:592 JLINK_ReadMemU32(0xE000EDF0, 0x0001 Items, ...) -- CPU_ReadMem(4 bytes @ 0xE000EDF0) -- Data:  03 00 03 00  returns 0x01 (0000ms, 0580ms total)
T00F8 000:592 JLINK_WriteU32(0xE000EDF0, 0xA05F0003) -- CPU_WriteMem(4 bytes @ 0xE000EDF0)  returns 0x00 (0001ms, 0581ms total)
T00F8 000:593 JLINK_WriteU32(0xE000EDFC, 0x01000000) -- CPU_WriteMem(4 bytes @ 0xE000EDFC)  returns 0x00 (0001ms, 0582ms total)
T00F8 000:598 JLINK_GetHWStatus(...)  returns 0x00 (0001ms, 0583ms total)
T00F8 000:601 JLINK_GetNumBPUnits(Type = 0xFFFFFF00)  returns 0x04 (0000ms, 0583ms total)
T00F8 000:601 JLINK_GetNumBPUnits(Type = 0xF0)  returns 0x2000 (0000ms, 0583ms total)
T00F8 000:601 JLINK_GetNumWPUnits()  returns 0x02 (0000ms, 0583ms total)
T00F8 000:604 JLINK_GetSpeed()  returns 0x3E8 (0000ms, 0583ms total)
T00F8 000:605 JLINK_ReadMemU32(0xE000E004, 0x0001 Items, ...) -- CPU_ReadMem(4 bytes @ 0xE000E004) -- Data:  00 00 00 00  returns 0x01 (0002ms, 0585ms total)
T00F8 000:607 JLINK_Halt()  returns 0x00 (0000ms, 0585ms total)
T00F8 000:607 JLINK_IsHalted()  returns TRUE (0000ms, 0585ms total)
T00F8 000:609 JLINK_WriteMem(0x10000000, 0x0170 Bytes, ...) -- Data:  00 BE 0A E0 0D 78 2D 06 68 40 08 24 40 00 00 D3 ... -- CPU_WriteMem(368 bytes @ 0x10000000)  returns 0x170 (0007ms, 0592ms total)
T00F8 000:616 JLINK_WriteReg(R0, 0x00000000)  returns 0x00 (0000ms, 0592ms total)
T00F8 000:616 JLINK_WriteReg(R1, 0x00B71B00)  returns 0x00 (0000ms, 0592ms total)
T00F8 000:616 JLINK_WriteReg(R2, 0x00000001)  returns 0x00 (0000ms, 0592ms total)
T00F8 000:616 JLINK_WriteReg(R3, 0x00000000)  returns 0x00 (0000ms, 0592ms total)
T00F8 000:616 JLINK_WriteReg(R4, 0x00000000)  returns 0x00 (0000ms, 0592ms total)
T00F8 000:616 JLINK_WriteReg(R5, 0x00000000)  returns 0x00 (0000ms, 0592ms total)
T00F8 000:616 JLINK_WriteReg(R6, 0x00000000)  returns 0x00 (0000ms, 0592ms total)
T00F8 000:616 JLINK_WriteReg(R7, 0x00000000)  returns 0x00 (0000ms, 0592ms total)
T00F8 000:616 JLINK_WriteReg(R8, 0x00000000)  returns 0x00 (0000ms, 0592ms total)
T00F8 000:616 JLINK_WriteReg(R9, 0x10000168)  returns 0x00 (0000ms, 0592ms total)
T00F8 000:616 JLINK_WriteReg(R10, 0x00000000)  returns 0x00 (0000ms, 0592ms total)
T00F8 000:616 JLINK_WriteReg(R11, 0x00000000)  returns 0x00 (0000ms, 0592ms total)
T00F8 000:616 JLINK_WriteReg(R12, 0x00000000)  returns 0x00 (0000ms, 0592ms total)
T00F8 000:616 JLINK_WriteReg(R13, 0x10000800)  returns 0x00 (0000ms, 0592ms total)
T00F8 000:616 JLINK_WriteReg(R14, 0x10000001)  returns 0x00 (0000ms, 0592ms total)
T00F8 000:616 JLINK_WriteReg(R15, 0x1000003C)  returns 0x00 (0000ms, 0592ms total)
T00F8 000:616 JLINK_WriteReg(XPSR, 0x01000000)  returns 0x00 (0000ms, 0592ms total)
T00F8 000:616 JLINK_WriteReg(MSP, 0x10000800)  returns 0x00 (0000ms, 0592ms total)
T00F8 000:616 JLINK_WriteReg(PSP, 0x10000800)  returns 0x00 (0000ms, 0592ms total)
T00F8 000:616 JLINK_WriteReg(CFBP, 0x00000000)  returns 0x00 (0000ms, 0592ms total)
T00F8 000:616 JLINK_SetBPEx(Addr = 0x10000000, Type = 0xFFFFFFF2)  returns 0x00000001 (0000ms, 0592ms total)
T00F8 000:616 JLINK_Go() -- CPU_WriteMem(4 bytes @ 0xE0002008) -- CPU_WriteMem(4 bytes @ 0xE000200C) -- CPU_WriteMem(4 bytes @ 0xE0002010) -- CPU_WriteMem(4 bytes @ 0xE0002014) (0010ms, 0602ms total)
T00F8 000:626 JLINK_IsHalted()  returns TRUE (0006ms, 0608ms total)
T00F8 000:632 JLINK_ReadReg(R15)  returns 0x10000000 (0000ms, 0602ms total)
T00F8 000:632 JLINK_ClrBPEx(BPHandle = 0x00000001)  returns 0x00 (0000ms, 0602ms total)
T00F8 000:633 JLINK_ReadReg(R0)  returns 0x00000000 (0000ms, 0603ms total)
T00F8 000:633 JLINK_WriteReg(R0, 0x00000000)  returns 0x00 (0000ms, 0603ms total)
T00F8 000:633 JLINK_WriteReg(R1, 0x00B71B00)  returns 0x00 (0000ms, 0603ms total)
T00F8 000:633 JLINK_WriteReg(R2, 0x00000001)  returns 0x00 (0000ms, 0603ms total)
T00F8 000:633 JLINK_WriteReg(R3, 0x00000000)  returns 0x00 (0000ms, 0603ms total)
T00F8 000:633 JLINK_WriteReg(R4, 0x00000000)  returns 0x00 (0000ms, 0603ms total)
T00F8 000:633 JLINK_WriteReg(R5, 0x00000000)  returns 0x00 (0000ms, 0603ms total)
T00F8 000:633 JLINK_WriteReg(R6, 0x00000000)  returns 0x00 (0000ms, 0603ms total)
T00F8 000:633 JLINK_WriteReg(R7, 0x00000000)  returns 0x00 (0000ms, 0603ms total)
T00F8 000:633 JLINK_WriteReg(R8, 0x00000000)  returns 0x00 (0000ms, 0603ms total)
T00F8 000:633 JLINK_WriteReg(R9, 0x10000168)  returns 0x00 (0000ms, 0603ms total)
T00F8 000:633 JLINK_WriteReg(R10, 0x00000000)  returns 0x00 (0000ms, 0603ms total)
T00F8 000:633 JLINK_WriteReg(R11, 0x00000000)  returns 0x00 (0000ms, 0603ms total)
T00F8 000:633 JLINK_WriteReg(R12, 0x00000000)  returns 0x00 (0000ms, 0603ms total)
T00F8 000:633 JLINK_WriteReg(R13, 0x10000800)  returns 0x00 (0000ms, 0603ms total)
T00F8 000:633 JLINK_WriteReg(R14, 0x10000001)  returns 0x00 (0000ms, 0603ms total)
T00F8 000:633 JLINK_WriteReg(R15, 0x10000064)  returns 0x00 (0000ms, 0603ms total)
T00F8 000:633 JLINK_WriteReg(XPSR, 0x01000000)  returns 0x00 (0000ms, 0603ms total)
T00F8 000:633 JLINK_WriteReg(MSP, 0x10000800)  returns 0x00 (0000ms, 0603ms total)
T00F8 000:633 JLINK_WriteReg(PSP, 0x10000800)  returns 0x00 (0000ms, 0603ms total)
T00F8 000:633 JLINK_WriteReg(CFBP, 0x00000000)  returns 0x00 (0000ms, 0603ms total)
T00F8 000:633 JLINK_SetBPEx(Addr = 0x10000000, Type = 0xFFFFFFF2)  returns 0x00000002 (0000ms, 0603ms total)
T00F8 000:633 JLINK_Go() -- CPU_WriteMem(4 bytes @ 0xE0002008) -- CPU_WriteMem(4 bytes @ 0xE000200C) -- CPU_WriteMem(4 bytes @ 0xE0002010) -- CPU_WriteMem(4 bytes @ 0xE0002014) (0008ms, 0611ms total)
T00F8 000:641 JLINK_IsHalted()  returns FALSE (0001ms, 0612ms total)
T00F8 000:693 JLINK_IsHalted()  returns FALSE (0001ms, 0612ms total)
T00F8 000:744 JLINK_IsHalted()  returns TRUE (0006ms, 0617ms total)
T00F8 000:750 JLINK_ReadReg(R15)  returns 0x10000000 (0000ms, 0611ms total)
T00F8 000:750 JLINK_ClrBPEx(BPHandle = 0x00000002)  returns 0x00 (0000ms, 0611ms total)
T00F8 000:750 JLINK_ReadReg(R0)  returns 0x00000000 (0000ms, 0611ms total)
T00F8 000:802 JLINK_WriteReg(R0, 0x00000001)  returns 0x00 (0000ms, 0611ms total)
T00F8 000:802 JLINK_WriteReg(R1, 0x00B71B00)  returns 0x00 (0000ms, 0611ms total)
T00F8 000:802 JLINK_WriteReg(R2, 0x00000001)  returns 0x00 (0000ms, 0611ms total)
T00F8 000:802 JLINK_WriteReg(R3, 0x00000000)  returns 0x00 (0000ms, 0611ms total)
T00F8 000:802 JLINK_WriteReg(R4, 0x00000000)  returns 0x00 (0000ms, 0611ms total)
T00F8 000:802 JLINK_WriteReg(R5, 0x00000000)  returns 0x00 (0000ms, 0611ms total)
T00F8 000:802 JLINK_WriteReg(R6, 0x00000000)  returns 0x00 (0000ms, 0611ms total)
T00F8 000:802 JLINK_WriteReg(R7, 0x00000000)  returns 0x00 (0000ms, 0611ms total)
T00F8 000:802 JLINK_WriteReg(R8, 0x00000000)  returns 0x00 (0000ms, 0611ms total)
T00F8 000:802 JLINK_WriteReg(R9, 0x10000168)  returns 0x00 (0000ms, 0611ms total)
T00F8 000:802 JLINK_WriteReg(R10, 0x00000000)  returns 0x00 (0000ms, 0611ms total)
T00F8 000:802 JLINK_WriteReg(R11, 0x00000000)  returns 0x00 (0000ms, 0611ms total)
T00F8 000:802 JLINK_WriteReg(R12, 0x00000000)  returns 0x00 (0000ms, 0611ms total)
T00F8 000:802 JLINK_WriteReg(R13, 0x10000800)  returns 0x00 (0000ms, 0611ms total)
T00F8 000:802 JLINK_WriteReg(R14, 0x10000001)  returns 0x00 (0000ms, 0611ms total)
T00F8 000:802 JLINK_WriteReg(R15, 0x10000060)  returns 0x00 (0000ms, 0611ms total)
T00F8 000:802 JLINK_WriteReg(XPSR, 0x01000000)  returns 0x00 (0000ms, 0611ms total)
T00F8 000:802 JLINK_WriteReg(MSP, 0x10000800)  returns 0x00 (0000ms, 0611ms total)
T00F8 000:802 JLINK_WriteReg(PSP, 0x10000800)  returns 0x00 (0000ms, 0611ms total)
T00F8 000:802 JLINK_WriteReg(CFBP, 0x00000000)  returns 0x00 (0000ms, 0611ms total)
T00F8 000:802 JLINK_SetBPEx(Addr = 0x10000000, Type = 0xFFFFFFF2)  returns 0x00000003 (0000ms, 0611ms total)
T00F8 000:802 JLINK_Go() -- CPU_WriteMem(4 bytes @ 0xE0002008) -- CPU_WriteMem(4 bytes @ 0xE000200C) -- CPU_WriteMem(4 bytes @ 0xE0002010) -- CPU_WriteMem(4 bytes @ 0xE0002014) (0009ms, 0620ms total)
T00F8 000:811 JLINK_IsHalted()  returns TRUE (0006ms, 0626ms total)
T00F8 000:817 JLINK_ReadReg(R15)  returns 0x10000000 (0000ms, 0620ms total)
T00F8 000:817 JLINK_ClrBPEx(BPHandle = 0x00000003)  returns 0x00 (0000ms, 0620ms total)
T00F8 000:817 JLINK_ReadReg(R0)  returns 0x00000000 (0000ms, 0620ms total)
T00F8 000:820 JLINK_WriteMem(0x10000000, 0x0170 Bytes, ...) -- Data:  00 BE 0A E0 0D 78 2D 06 68 40 08 24 40 00 00 D3 ... -- CPU_WriteMem(368 bytes @ 0x10000000)  returns 0x170 (0008ms, 0628ms total)
T00F8 000:828 JLINK_WriteReg(R0, 0x00000000)  returns 0x00 (0000ms, 0628ms total)
T00F8 000:828 JLINK_WriteReg(R1, 0x00B71B00)  returns 0x00 (0000ms, 0628ms total)
T00F8 000:828 JLINK_WriteReg(R2, 0x00000002)  returns 0x00 (0000ms, 0628ms total)
T00F8 000:828 JLINK_WriteReg(R3, 0x00000000)  returns 0x00 (0000ms, 0628ms total)
T00F8 000:828 JLINK_WriteReg(R4, 0x00000000)  returns 0x00 (0000ms, 0628ms total)
T00F8 000:828 JLINK_WriteReg(R5, 0x00000000)  returns 0x00 (0000ms, 0628ms total)
T00F8 000:828 JLINK_WriteReg(R6, 0x00000000)  returns 0x00 (0000ms, 0628ms total)
T00F8 000:828 JLINK_WriteReg(R7, 0x00000000)  returns 0x00 (0000ms, 0628ms total)
T00F8 000:828 JLINK_WriteReg(R8, 0x00000000)  returns 0x00 (0000ms, 0628ms total)
T00F8 000:828 JLINK_WriteReg(R9, 0x10000168)  returns 0x00 (0000ms, 0628ms total)
T00F8 000:828 JLINK_WriteReg(R10, 0x00000000)  returns 0x00 (0000ms, 0628ms total)
T00F8 000:828 JLINK_WriteReg(R11, 0x00000000)  returns 0x00 (0000ms, 0628ms total)
T00F8 000:828 JLINK_WriteReg(R12, 0x00000000)  returns 0x00 (0000ms, 0628ms total)
T00F8 000:828 JLINK_WriteReg(R13, 0x10000800)  returns 0x00 (0000ms, 0628ms total)
T00F8 000:828 JLINK_WriteReg(R14, 0x10000001)  returns 0x00 (0000ms, 0628ms total)
T00F8 000:828 JLINK_WriteReg(R15, 0x1000003C)  returns 0x00 (0000ms, 0628ms total)
T00F8 000:828 JLINK_WriteReg(XPSR, 0x01000000)  returns 0x00 (0000ms, 0628ms total)
T00F8 000:828 JLINK_WriteReg(MSP, 0x10000800)  returns 0x00 (0000ms, 0628ms total)
T00F8 000:828 JLINK_WriteReg(PSP, 0x10000800)  returns 0x00 (0000ms, 0628ms total)
T00F8 000:828 JLINK_WriteReg(CFBP, 0x00000000)  returns 0x00 (0000ms, 0628ms total)
T00F8 000:828 JLINK_SetBPEx(Addr = 0x10000000, Type = 0xFFFFFFF2)  returns 0x00000004 (0000ms, 0628ms total)
T00F8 000:828 JLINK_Go() -- CPU_WriteMem(4 bytes @ 0xE0002008) -- CPU_WriteMem(4 bytes @ 0xE000200C) -- CPU_WriteMem(4 bytes @ 0xE0002010) -- CPU_WriteMem(4 bytes @ 0xE0002014) (0008ms, 0636ms total)
T00F8 000:836 JLINK_IsHalted()  returns TRUE (0006ms, 0642ms total)
T00F8 000:842 JLINK_ReadReg(R15)  returns 0x10000000 (0000ms, 0636ms total)
T00F8 000:842 JLINK_ClrBPEx(BPHandle = 0x00000004)  returns 0x00 (0000ms, 0636ms total)
T00F8 000:842 JLINK_ReadReg(R0)  returns 0x00000000 (0000ms, 0636ms total)
T00F8 000:843 JLINK_WriteMem(0x10000190, 0x0270 Bytes, ...) -- Data:  1C 13 00 10 6D 02 00 00 5D 02 00 00 75 01 00 00 ... -- CPU_WriteMem(624 bytes @ 0x10000190)  returns 0x270 (0013ms, 0649ms total)
T00F8 000:856 JLINK_WriteMem(0x10000400, 0x0190 Bytes, ...) -- Data:  09 4B 01 E0 02 CA 02 C3 08 48 83 42 FA D3 08 4B ... -- CPU_WriteMem(400 bytes @ 0x10000400)  returns 0x190 (0009ms, 0658ms total)
T00F8 000:865 JLINK_WriteReg(R0, 0x00000000)  returns 0x00 (0000ms, 0658ms total)
T00F8 000:865 JLINK_WriteReg(R1, 0x00000400)  returns 0x00 (0000ms, 0658ms total)
T00F8 000:865 JLINK_WriteReg(R2, 0x10000190)  returns 0x00 (0000ms, 0658ms total)
T00F8 000:865 JLINK_WriteReg(R3, 0x00000000)  returns 0x00 (0000ms, 0658ms total)
T00F8 000:865 JLINK_WriteReg(R4, 0x00000000)  returns 0x00 (0000ms, 0658ms total)
T00F8 000:865 JLINK_WriteReg(R5, 0x00000000)  returns 0x00 (0000ms, 0658ms total)
T00F8 000:865 JLINK_WriteReg(R6, 0x00000000)  returns 0x00 (0000ms, 0658ms total)
T00F8 000:865 JLINK_WriteReg(R7, 0x00000000)  returns 0x00 (0000ms, 0658ms total)
T00F8 000:865 JLINK_WriteReg(R8, 0x00000000)  returns 0x00 (0000ms, 0658ms total)
T00F8 000:865 JLINK_WriteReg(R9, 0x10000168)  returns 0x00 (0000ms, 0658ms total)
T00F8 000:865 JLINK_WriteReg(R10, 0x00000000)  returns 0x00 (0000ms, 0658ms total)
T00F8 000:865 JLINK_WriteReg(R11, 0x00000000)  returns 0x00 (0000ms, 0658ms total)
T00F8 000:865 JLINK_WriteReg(R12, 0x00000000)  returns 0x00 (0000ms, 0658ms total)
T00F8 000:865 JLINK_WriteReg(R13, 0x10000800)  returns 0x00 (0000ms, 0658ms total)
T00F8 000:865 JLINK_WriteReg(R14, 0x10000001)  returns 0x00 (0000ms, 0658ms total)
T00F8 000:865 JLINK_WriteReg(R15, 0x100000E6)  returns 0x00 (0000ms, 0658ms total)
T00F8 000:865 JLINK_WriteReg(XPSR, 0x01000000)  returns 0x00 (0000ms, 0658ms total)
T00F8 000:865 JLINK_WriteReg(MSP, 0x10000800)  returns 0x00 (0000ms, 0658ms total)
T00F8 000:865 JLINK_WriteReg(PSP, 0x10000800)  returns 0x00 (0000ms, 0658ms total)
T00F8 000:865 JLINK_WriteReg(CFBP, 0x00000000)  returns 0x00 (0000ms, 0658ms total)
T00F8 000:865 JLINK_SetBPEx(Addr = 0x10000000, Type = 0xFFFFFFF2)  returns 0x00000005 (0000ms, 0658ms total)
T00F8 000:865 JLINK_Go() -- CPU_WriteMem(4 bytes @ 0xE0002008) -- CPU_WriteMem(4 bytes @ 0xE000200C) -- CPU_WriteMem(4 bytes @ 0xE0002010) -- CPU_WriteMem(4 bytes @ 0xE0002014) (0007ms, 0665ms total)
T00F8 000:872 JLINK_IsHalted()  returns FALSE (0001ms, 0666ms total)
T00F8 000:924 JLINK_IsHalted()  returns TRUE (0006ms, 0671ms total)
T00F8 000:930 JLINK_ReadReg(R15)  returns 0x10000000 (0000ms, 0665ms total)
T00F8 000:930 JLINK_ClrBPEx(BPHandle = 0x00000005)  returns 0x00 (0000ms, 0665ms total)
T00F8 000:930 JLINK_ReadReg(R0)  returns 0x00000000 (0000ms, 0665ms total)
T00F8 000:930 JLINK_WriteMem(0x10000190, 0x0270 Bytes, ...) -- Data:  24 48 00 00 48 0B 00 10 31 48 00 00 D0 0C 00 10 ... -- CPU_WriteMem(624 bytes @ 0x10000190)  returns 0x270 (0013ms, 0678ms total)
T00F8 000:943 JLINK_WriteMem(0x10000400, 0x0190 Bytes, ...) -- Data:  9B 79 01 27 3C 43 3B 42 0A D1 00 F0 DB F9 00 28 ... -- CPU_WriteMem(400 bytes @ 0x10000400)  returns 0x190 (0008ms, 0686ms total)
T00F8 000:951 JLINK_WriteReg(R0, 0x00000400)  returns 0x00 (0000ms, 0686ms total)
T00F8 000:951 JLINK_WriteReg(R1, 0x00000400)  returns 0x00 (0000ms, 0686ms total)
T00F8 000:951 JLINK_WriteReg(R2, 0x10000190)  returns 0x00 (0000ms, 0686ms total)
T00F8 000:951 JLINK_WriteReg(R3, 0x00000000)  returns 0x00 (0000ms, 0686ms total)
T00F8 000:951 JLINK_WriteReg(R4, 0x00000000)  returns 0x00 (0000ms, 0686ms total)
T00F8 000:951 JLINK_WriteReg(R5, 0x00000000)  returns 0x00 (0000ms, 0686ms total)
T00F8 000:951 JLINK_WriteReg(R6, 0x00000000)  returns 0x00 (0000ms, 0686ms total)
T00F8 000:951 JLINK_WriteReg(R7, 0x00000000)  returns 0x00 (0000ms, 0686ms total)
T00F8 000:951 JLINK_WriteReg(R8, 0x00000000)  returns 0x00 (0000ms, 0686ms total)
T00F8 000:951 JLINK_WriteReg(R9, 0x10000168)  returns 0x00 (0000ms, 0686ms total)
T00F8 000:951 JLINK_WriteReg(R10, 0x00000000)  returns 0x00 (0000ms, 0686ms total)
T00F8 000:951 JLINK_WriteReg(R11, 0x00000000)  returns 0x00 (0000ms, 0686ms total)
T00F8 000:951 JLINK_WriteReg(R12, 0x00000000)  returns 0x00 (0000ms, 0686ms total)
T00F8 000:951 JLINK_WriteReg(R13, 0x10000800)  returns 0x00 (0000ms, 0686ms total)
T00F8 000:951 JLINK_WriteReg(R14, 0x10000001)  returns 0x00 (0000ms, 0686ms total)
T00F8 000:951 JLINK_WriteReg(R15, 0x100000E6)  returns 0x00 (0000ms, 0686ms total)
T00F8 000:951 JLINK_WriteReg(XPSR, 0x01000000)  returns 0x00 (0000ms, 0686ms total)
T00F8 000:951 JLINK_WriteReg(MSP, 0x10000800)  returns 0x00 (0000ms, 0686ms total)
T00F8 000:951 JLINK_WriteReg(PSP, 0x10000800)  returns 0x00 (0000ms, 0686ms total)
T00F8 000:951 JLINK_WriteReg(CFBP, 0x00000000)  returns 0x00 (0000ms, 0686ms total)
T00F8 000:951 JLINK_SetBPEx(Addr = 0x10000000, Type = 0xFFFFFFF2)  returns 0x00000006 (0000ms, 0686ms total)
T00F8 000:951 JLINK_Go() -- CPU_WriteMem(4 bytes @ 0xE0002008) -- CPU_WriteMem(4 bytes @ 0xE000200C) -- CPU_WriteMem(4 bytes @ 0xE0002010) -- CPU_WriteMem(4 bytes @ 0xE0002014) (0007ms, 0693ms total)
T00F8 000:958 JLINK_IsHalted()  returns FALSE (0001ms, 0694ms total)
T00F8 001:010 JLINK_IsHalted()  returns TRUE (0007ms, 0700ms total)
T00F8 001:018 JLINK_ReadReg(R15)  returns 0x10000000 (0000ms, 0693ms total)
T00F8 001:018 JLINK_ClrBPEx(BPHandle = 0x00000006)  returns 0x00 (0000ms, 0693ms total)
T00F8 001:018 JLINK_ReadReg(R0)  returns 0x00000000 (0000ms, 0693ms total)
T00F8 001:018 JLINK_WriteMem(0x10000190, 0x0270 Bytes, ...) -- Data:  3A 48 03 F0 05 FE 3A 48 03 F0 02 FE 02 F0 4A FC ... -- CPU_WriteMem(624 bytes @ 0x10000190)  returns 0x270 (0013ms, 0706ms total)
T00F8 001:031 JLINK_WriteMem(0x10000400, 0x0190 Bytes, ...) -- Data:  6C 1C 31 88 9E 05 0E 43 E1 02 0A 24 65 43 04 23 ... -- CPU_WriteMem(400 bytes @ 0x10000400)  returns 0x190 (0008ms, 0714ms total)
T00F8 001:039 JLINK_WriteReg(R0, 0x00000800)  returns 0x00 (0000ms, 0714ms total)
T00F8 001:039 JLINK_WriteReg(R1, 0x00000400)  returns 0x00 (0000ms, 0714ms total)
T00F8 001:039 JLINK_WriteReg(R2, 0x10000190)  returns 0x00 (0000ms, 0714ms total)
T00F8 001:039 JLINK_WriteReg(R3, 0x00000000)  returns 0x00 (0000ms, 0714ms total)
T00F8 001:039 JLINK_WriteReg(R4, 0x00000000)  returns 0x00 (0000ms, 0714ms total)
T00F8 001:039 JLINK_WriteReg(R5, 0x00000000)  returns 0x00 (0000ms, 0714ms total)
T00F8 001:039 JLINK_WriteReg(R6, 0x00000000)  returns 0x00 (0000ms, 0714ms total)
T00F8 001:039 JLINK_WriteReg(R7, 0x00000000)  returns 0x00 (0000ms, 0714ms total)
T00F8 001:039 JLINK_WriteReg(R8, 0x00000000)  returns 0x00 (0000ms, 0714ms total)
T00F8 001:039 JLINK_WriteReg(R9, 0x10000168)  returns 0x00 (0000ms, 0714ms total)
T00F8 001:039 JLINK_WriteReg(R10, 0x00000000)  returns 0x00 (0000ms, 0714ms total)
T00F8 001:039 JLINK_WriteReg(R11, 0x00000000)  returns 0x00 (0000ms, 0714ms total)
T00F8 001:039 JLINK_WriteReg(R12, 0x00000000)  returns 0x00 (0000ms, 0714ms total)
T00F8 001:039 JLINK_WriteReg(R13, 0x10000800)  returns 0x00 (0000ms, 0714ms total)
T00F8 001:039 JLINK_WriteReg(R14, 0x10000001)  returns 0x00 (0000ms, 0714ms total)
T00F8 001:039 JLINK_WriteReg(R15, 0x100000E6)  returns 0x00 (0000ms, 0714ms total)
T00F8 001:039 JLINK_WriteReg(XPSR, 0x01000000)  returns 0x00 (0000ms, 0714ms total)
T00F8 001:039 JLINK_WriteReg(MSP, 0x10000800)  returns 0x00 (0000ms, 0714ms total)
T00F8 001:039 JLINK_WriteReg(PSP, 0x10000800)  returns 0x00 (0000ms, 0714ms total)
T00F8 001:039 JLINK_WriteReg(CFBP, 0x00000000)  returns 0x00 (0000ms, 0714ms total)
T00F8 001:039 JLINK_SetBPEx(Addr = 0x10000000, Type = 0xFFFFFFF2)  returns 0x00000007 (0000ms, 0714ms total)
T00F8 001:039 JLINK_Go() -- CPU_WriteMem(4 bytes @ 0xE0002008) -- CPU_WriteMem(4 bytes @ 0xE000200C) -- CPU_WriteMem(4 bytes @ 0xE0002010) -- CPU_WriteMem(4 bytes @ 0xE0002014) (0008ms, 0722ms total)
T00F8 001:047 JLINK_IsHalted()  returns FALSE (0001ms, 0723ms total)
T00F8 001:099 JLINK_IsHalted()  returns TRUE (0006ms, 0728ms total)
T00F8 001:105 JLINK_ReadReg(R15)  returns 0x10000000 (0000ms, 0722ms total)
T00F8 001:105 JLINK_ClrBPEx(BPHandle = 0x00000007)  returns 0x00 (0000ms, 0722ms total)
T00F8 001:105 JLINK_ReadReg(R0)  returns 0x00000000 (0000ms, 0722ms total)
T00F8 001:105 JLINK_WriteMem(0x10000190, 0x0270 Bytes, ...) -- Data:  01 D8 11 4C E1 5C 0C 4E 10 4C 33 68 6E 1C 1B 88 ... -- CPU_WriteMem(624 bytes @ 0x10000190)  returns 0x270 (0012ms, 0734ms total)
T00F8 001:117 JLINK_WriteMem(0x10000400, 0x0190 Bytes, ...) -- Data:  10 BD C0 46 D0 0D 00 10 C6 10 00 10 CC 0C 00 10 ... -- CPU_WriteMem(400 bytes @ 0x10000400)  returns 0x190 (0009ms, 0743ms total)
T00F8 001:126 JLINK_WriteReg(R0, 0x00000C00)  returns 0x00 (0000ms, 0743ms total)
T00F8 001:126 JLINK_WriteReg(R1, 0x00000400)  returns 0x00 (0000ms, 0743ms total)
T00F8 001:126 JLINK_WriteReg(R2, 0x10000190)  returns 0x00 (0000ms, 0743ms total)
T00F8 001:126 JLINK_WriteReg(R3, 0x00000000)  returns 0x00 (0000ms, 0743ms total)
T00F8 001:126 JLINK_WriteReg(R4, 0x00000000)  returns 0x00 (0000ms, 0743ms total)
T00F8 001:126 JLINK_WriteReg(R5, 0x00000000)  returns 0x00 (0000ms, 0743ms total)
T00F8 001:126 JLINK_WriteReg(R6, 0x00000000)  returns 0x00 (0000ms, 0743ms total)
T00F8 001:126 JLINK_WriteReg(R7, 0x00000000)  returns 0x00 (0000ms, 0743ms total)
T00F8 001:126 JLINK_WriteReg(R8, 0x00000000)  returns 0x00 (0000ms, 0743ms total)
T00F8 001:126 JLINK_WriteReg(R9, 0x10000168)  returns 0x00 (0000ms, 0743ms total)
T00F8 001:126 JLINK_WriteReg(R10, 0x00000000)  returns 0x00 (0000ms, 0743ms total)
T00F8 001:126 JLINK_WriteReg(R11, 0x00000000)  returns 0x00 (0000ms, 0743ms total)
T00F8 001:126 JLINK_WriteReg(R12, 0x00000000)  returns 0x00 (0000ms, 0743ms total)
T00F8 001:126 JLINK_WriteReg(R13, 0x10000800)  returns 0x00 (0000ms, 0743ms total)
T00F8 001:126 JLINK_WriteReg(R14, 0x10000001)  returns 0x00 (0000ms, 0743ms total)
T00F8 001:126 JLINK_WriteReg(R15, 0x100000E6)  returns 0x00 (0001ms, 0744ms total)
T00F8 001:127 JLINK_WriteReg(XPSR, 0x01000000)  returns 0x00 (0000ms, 0744ms total)
T00F8 001:127 JLINK_WriteReg(MSP, 0x10000800)  returns 0x00 (0000ms, 0744ms total)
T00F8 001:127 JLINK_WriteReg(PSP, 0x10000800)  returns 0x00 (0000ms, 0744ms total)
T00F8 001:127 JLINK_WriteReg(CFBP, 0x00000000)  returns 0x00 (0000ms, 0744ms total)
T00F8 001:127 JLINK_SetBPEx(Addr = 0x10000000, Type = 0xFFFFFFF2)  returns 0x00000008 (0000ms, 0744ms total)
T00F8 001:127 JLINK_Go() -- CPU_WriteMem(4 bytes @ 0xE0002008) -- CPU_WriteMem(4 bytes @ 0xE000200C) -- CPU_WriteMem(4 bytes @ 0xE0002010) -- CPU_WriteMem(4 bytes @ 0xE0002014) (0006ms, 0750ms total)
T00F8 001:133 JLINK_IsHalted()  returns FALSE (0001ms, 0751ms total)
T00F8 001:185 JLINK_IsHalted()  returns TRUE (0006ms, 0756ms total)
T00F8 001:191 JLINK_ReadReg(R15)  returns 0x10000000 (0000ms, 0750ms total)
T00F8 001:191 JLINK_ClrBPEx(BPHandle = 0x00000008)  returns 0x00 (0000ms, 0750ms total)
T00F8 001:191 JLINK_ReadReg(R0)  returns 0x00000000 (0000ms, 0750ms total)
T00F8 001:191 JLINK_WriteMem(0x10000190, 0x0270 Bytes, ...) -- Data:  28 1D 11 68 51 4C 8E 78 00 21 EE 70 1D E0 23 78 ... -- CPU_WriteMem(624 bytes @ 0x10000190)  returns 0x270 (0012ms, 0762ms total)
T00F8 001:203 JLINK_WriteMem(0x10000400, 0x0190 Bytes, ...) -- Data:  1B 48 9E 68 F5 69 A8 47 80 20 03 AD 87 05 01 22 ... -- CPU_WriteMem(400 bytes @ 0x10000400)  returns 0x190 (0009ms, 0771ms total)
T00F8 001:212 JLINK_WriteReg(R0, 0x00001000)  returns 0x00 (0000ms, 0771ms total)
T00F8 001:212 JLINK_WriteReg(R1, 0x00000400)  returns 0x00 (0000ms, 0771ms total)
T00F8 001:212 JLINK_WriteReg(R2, 0x10000190)  returns 0x00 (0000ms, 0771ms total)
T00F8 001:212 JLINK_WriteReg(R3, 0x00000000)  returns 0x00 (0000ms, 0771ms total)
T00F8 001:212 JLINK_WriteReg(R4, 0x00000000)  returns 0x00 (0000ms, 0771ms total)
T00F8 001:212 JLINK_WriteReg(R5, 0x00000000)  returns 0x00 (0000ms, 0771ms total)
T00F8 001:212 JLINK_WriteReg(R6, 0x00000000)  returns 0x00 (0000ms, 0771ms total)
T00F8 001:212 JLINK_WriteReg(R7, 0x00000000)  returns 0x00 (0000ms, 0771ms total)
T00F8 001:212 JLINK_WriteReg(R8, 0x00000000)  returns 0x00 (0000ms, 0771ms total)
T00F8 001:212 JLINK_WriteReg(R9, 0x10000168)  returns 0x00 (0000ms, 0771ms total)
T00F8 001:212 JLINK_WriteReg(R10, 0x00000000)  returns 0x00 (0001ms, 0772ms total)
T00F8 001:213 JLINK_WriteReg(R11, 0x00000000)  returns 0x00 (0000ms, 0772ms total)
T00F8 001:213 JLINK_WriteReg(R12, 0x00000000)  returns 0x00 (0000ms, 0772ms total)
T00F8 001:213 JLINK_WriteReg(R13, 0x10000800)  returns 0x00 (0000ms, 0772ms total)
T00F8 001:213 JLINK_WriteReg(R14, 0x10000001)  returns 0x00 (0000ms, 0772ms total)
T00F8 001:213 JLINK_WriteReg(R15, 0x100000E6)  returns 0x00 (0000ms, 0772ms total)
T00F8 001:213 JLINK_WriteReg(XPSR, 0x01000000)  returns 0x00 (0000ms, 0772ms total)
T00F8 001:213 JLINK_WriteReg(MSP, 0x10000800)  returns 0x00 (0000ms, 0772ms total)
T00F8 001:213 JLINK_WriteReg(PSP, 0x10000800)  returns 0x00 (0000ms, 0772ms total)
T00F8 001:213 JLINK_WriteReg(CFBP, 0x00000000)  returns 0x00 (0000ms, 0772ms total)
T00F8 001:213 JLINK_SetBPEx(Addr = 0x10000000, Type = 0xFFFFFFF2)  returns 0x00000009 (0000ms, 0772ms total)
T00F8 001:213 JLINK_Go() -- CPU_WriteMem(4 bytes @ 0xE0002008) -- CPU_WriteMem(4 bytes @ 0xE000200C) -- CPU_WriteMem(4 bytes @ 0xE0002010) -- CPU_WriteMem(4 bytes @ 0xE0002014) (0006ms, 0778ms total)
T00F8 001:219 JLINK_IsHalted()  returns FALSE (0002ms, 0780ms total)
T00F8 001:272 JLINK_IsHalted()  returns TRUE (0006ms, 0784ms total)
T00F8 001:278 JLINK_ReadReg(R15)  returns 0x10000000 (0000ms, 0778ms total)
T00F8 001:278 JLINK_ClrBPEx(BPHandle = 0x00000009)  returns 0x00 (0000ms, 0778ms total)
T00F8 001:278 JLINK_ReadReg(R0)  returns 0x00000000 (0000ms, 0778ms total)
T00F8 001:278 JLINK_WriteMem(0x10000190, 0x0270 Bytes, ...) -- Data:  D4 0D 00 10 04 80 04 40 3C 02 00 10 00 E1 00 E0 ... -- CPU_WriteMem(624 bytes @ 0x10000190)  returns 0x270 (0012ms, 0790ms total)
T00F8 001:290 JLINK_WriteMem(0x10000400, 0x0190 Bytes, ...) -- Data:  F0 B5 85 B0 01 91 17 1C 00 21 6A 46 D1 73 00 90 ... -- CPU_WriteMem(400 bytes @ 0x10000400)  returns 0x190 (0009ms, 0799ms total)
T00F8 001:299 JLINK_WriteReg(R0, 0x00001400)  returns 0x00 (0000ms, 0799ms total)
T00F8 001:299 JLINK_WriteReg(R1, 0x00000400)  returns 0x00 (0000ms, 0799ms total)
T00F8 001:299 JLINK_WriteReg(R2, 0x10000190)  returns 0x00 (0000ms, 0799ms total)
T00F8 001:300 JLINK_WriteReg(R3, 0x00000000)  returns 0x00 (0000ms, 0800ms total)
T00F8 001:300 JLINK_WriteReg(R4, 0x00000000)  returns 0x00 (0000ms, 0800ms total)
T00F8 001:300 JLINK_WriteReg(R5, 0x00000000)  returns 0x00 (0000ms, 0800ms total)
T00F8 001:300 JLINK_WriteReg(R6, 0x00000000)  returns 0x00 (0000ms, 0800ms total)
T00F8 001:300 JLINK_WriteReg(R7, 0x00000000)  returns 0x00 (0000ms, 0800ms total)
T00F8 001:300 JLINK_WriteReg(R8, 0x00000000)  returns 0x00 (0000ms, 0800ms total)
T00F8 001:300 JLINK_WriteReg(R9, 0x10000168)  returns 0x00 (0000ms, 0800ms total)
T00F8 001:300 JLINK_WriteReg(R10, 0x00000000)  returns 0x00 (0000ms, 0800ms total)
T00F8 001:300 JLINK_WriteReg(R11, 0x00000000)  returns 0x00 (0000ms, 0800ms total)
T00F8 001:300 JLINK_WriteReg(R12, 0x00000000)  returns 0x00 (0000ms, 0800ms total)
T00F8 001:300 JLINK_WriteReg(R13, 0x10000800)  returns 0x00 (0000ms, 0800ms total)
T00F8 001:300 JLINK_WriteReg(R14, 0x10000001)  returns 0x00 (0000ms, 0800ms total)
T00F8 001:300 JLINK_WriteReg(R15, 0x100000E6)  returns 0x00 (0000ms, 0800ms total)
T00F8 001:300 JLINK_WriteReg(XPSR, 0x01000000)  returns 0x00 (0000ms, 0800ms total)
T00F8 001:300 JLINK_WriteReg(MSP, 0x10000800)  returns 0x00 (0000ms, 0800ms total)
T00F8 001:300 JLINK_WriteReg(PSP, 0x10000800)  returns 0x00 (0000ms, 0800ms total)
T00F8 001:300 JLINK_WriteReg(CFBP, 0x00000000)  returns 0x00 (0000ms, 0800ms total)
T00F8 001:300 JLINK_SetBPEx(Addr = 0x10000000, Type = 0xFFFFFFF2)  returns 0x0000000A (0000ms, 0800ms total)
T00F8 001:300 JLINK_Go() -- CPU_WriteMem(4 bytes @ 0xE0002008) -- CPU_WriteMem(4 bytes @ 0xE000200C) -- CPU_WriteMem(4 bytes @ 0xE0002010) -- CPU_WriteMem(4 bytes @ 0xE0002014) (0008ms, 0808ms total)
T00F8 001:308 JLINK_IsHalted()  returns FALSE (0001ms, 0809ms total)
T00F8 001:360 JLINK_IsHalted()  returns TRUE (0005ms, 0813ms total)
T00F8 001:365 JLINK_ReadReg(R15)  returns 0x10000000 (0000ms, 0808ms total)
T00F8 001:365 JLINK_ClrBPEx(BPHandle = 0x0000000A)  returns 0x00 (0000ms, 0808ms total)
T00F8 001:365 JLINK_ReadReg(R0)  returns 0x00000000 (0000ms, 0808ms total)
T00F8 001:365 JLINK_WriteMem(0x10000190, 0x0270 Bytes, ...) -- Data:  08 E0 C1 5C 00 2A 01 D1 CE 43 F1 B2 06 4E 01 36 ... -- CPU_WriteMem(624 bytes @ 0x10000190)  returns 0x270 (0013ms, 0821ms total)
T00F8 001:378 JLINK_WriteMem(0x10000400, 0x0190 Bytes, ...) -- Data:  0B 60 13 60 03 1C 00 28 00 D0 01 23 14 4A DB B2 ... -- CPU_WriteMem(400 bytes @ 0x10000400)  returns 0x190 (0009ms, 0830ms total)
T00F8 001:388 JLINK_WriteReg(R0, 0x00001800)  returns 0x00 (0000ms, 0831ms total)
T00F8 001:388 JLINK_WriteReg(R1, 0x00000400)  returns 0x00 (0000ms, 0831ms total)
T00F8 001:388 JLINK_WriteReg(R2, 0x10000190)  returns 0x00 (0000ms, 0831ms total)
T00F8 001:388 JLINK_WriteReg(R3, 0x00000000)  returns 0x00 (0000ms, 0831ms total)
T00F8 001:388 JLINK_WriteReg(R4, 0x00000000)  returns 0x00 (0000ms, 0831ms total)
T00F8 001:388 JLINK_WriteReg(R5, 0x00000000)  returns 0x00 (0000ms, 0831ms total)
T00F8 001:388 JLINK_WriteReg(R6, 0x00000000)  returns 0x00 (0000ms, 0831ms total)
T00F8 001:388 JLINK_WriteReg(R7, 0x00000000)  returns 0x00 (0000ms, 0831ms total)
T00F8 001:388 JLINK_WriteReg(R8, 0x00000000)  returns 0x00 (0000ms, 0831ms total)
T00F8 001:388 JLINK_WriteReg(R9, 0x10000168)  returns 0x00 (0000ms, 0831ms total)
T00F8 001:388 JLINK_WriteReg(R10, 0x00000000)  returns 0x00 (0000ms, 0831ms total)
T00F8 001:388 JLINK_WriteReg(R11, 0x00000000)  returns 0x00 (0000ms, 0831ms total)
T00F8 001:388 JLINK_WriteReg(R12, 0x00000000)  returns 0x00 (0000ms, 0831ms total)
T00F8 001:388 JLINK_WriteReg(R13, 0x10000800)  returns 0x00 (0000ms, 0831ms total)
T00F8 001:388 JLINK_WriteReg(R14, 0x10000001)  returns 0x00 (0000ms, 0831ms total)
T00F8 001:388 JLINK_WriteReg(R15, 0x100000E6)  returns 0x00 (0000ms, 0831ms total)
T00F8 001:388 JLINK_WriteReg(XPSR, 0x01000000)  returns 0x00 (0000ms, 0831ms total)
T00F8 001:388 JLINK_WriteReg(MSP, 0x10000800)  returns 0x00 (0000ms, 0831ms total)
T00F8 001:388 JLINK_WriteReg(PSP, 0x10000800)  returns 0x00 (0000ms, 0831ms total)
T00F8 001:388 JLINK_WriteReg(CFBP, 0x00000000)  returns 0x00 (0000ms, 0831ms total)
T00F8 001:388 JLINK_SetBPEx(Addr = 0x10000000, Type = 0xFFFFFFF2)  returns 0x0000000B (0000ms, 0831ms total)
T00F8 001:388 JLINK_Go() -- CPU_WriteMem(4 bytes @ 0xE0002008) -- CPU_WriteMem(4 bytes @ 0xE000200C) -- CPU_WriteMem(4 bytes @ 0xE0002010) -- CPU_WriteMem(4 bytes @ 0xE0002014) (0008ms, 0839ms total)
T00F8 001:396 JLINK_IsHalted()  returns FALSE (0001ms, 0840ms total)
T00F8 001:448 JLINK_IsHalted()  returns TRUE (0005ms, 0844ms total)
T00F8 001:453 JLINK_ReadReg(R15)  returns 0x10000000 (0000ms, 0839ms total)
T00F8 001:453 JLINK_ClrBPEx(BPHandle = 0x0000000B)  returns 0x00 (0000ms, 0839ms total)
T00F8 001:453 JLINK_ReadReg(R0)  returns 0x00000000 (0000ms, 0839ms total)
T00F8 001:453 JLINK_WriteMem(0x10000190, 0x0270 Bytes, ...) -- Data:  85 49 00 00 00 00 02 50 FC 3F 00 00 7F F8 FF FF ... -- CPU_WriteMem(624 bytes @ 0x10000190)  returns 0x270 (0013ms, 0852ms total)
T00F8 001:466 JLINK_WriteMem(0x10000400, 0x0190 Bytes, ...) -- Data:  31 E0 80 23 34 1C 5B 00 9E 42 00 DD 1C 1C EA B2 ... -- CPU_WriteMem(400 bytes @ 0x10000400)  returns 0x190 (0010ms, 0862ms total)
T00F8 001:476 JLINK_WriteReg(R0, 0x00001C00)  returns 0x00 (0000ms, 0862ms total)
T00F8 001:476 JLINK_WriteReg(R1, 0x00000400)  returns 0x00 (0000ms, 0862ms total)
T00F8 001:476 JLINK_WriteReg(R2, 0x10000190)  returns 0x00 (0000ms, 0862ms total)
T00F8 001:476 JLINK_WriteReg(R3, 0x00000000)  returns 0x00 (0000ms, 0862ms total)
T00F8 001:476 JLINK_WriteReg(R4, 0x00000000)  returns 0x00 (0000ms, 0862ms total)
T00F8 001:476 JLINK_WriteReg(R5, 0x00000000)  returns 0x00 (0000ms, 0862ms total)
T00F8 001:476 JLINK_WriteReg(R6, 0x00000000)  returns 0x00 (0000ms, 0862ms total)
T00F8 001:476 JLINK_WriteReg(R7, 0x00000000)  returns 0x00 (0000ms, 0862ms total)
T00F8 001:476 JLINK_WriteReg(R8, 0x00000000)  returns 0x00 (0000ms, 0862ms total)
T00F8 001:476 JLINK_WriteReg(R9, 0x10000168)  returns 0x00 (0000ms, 0862ms total)
T00F8 001:476 JLINK_WriteReg(R10, 0x00000000)  returns 0x00 (0000ms, 0862ms total)
T00F8 001:476 JLINK_WriteReg(R11, 0x00000000)  returns 0x00 (0000ms, 0862ms total)
T00F8 001:476 JLINK_WriteReg(R12, 0x00000000)  returns 0x00 (0000ms, 0862ms total)
T00F8 001:476 JLINK_WriteReg(R13, 0x10000800)  returns 0x00 (0000ms, 0862ms total)
T00F8 001:476 JLINK_WriteReg(R14, 0x10000001)  returns 0x00 (0000ms, 0862ms total)
T00F8 001:476 JLINK_WriteReg(R15, 0x100000E6)  returns 0x00 (0000ms, 0862ms total)
T00F8 001:476 JLINK_WriteReg(XPSR, 0x01000000)  returns 0x00 (0000ms, 0862ms total)
T00F8 001:476 JLINK_WriteReg(MSP, 0x10000800)  returns 0x00 (0000ms, 0862ms total)
T00F8 001:476 JLINK_WriteReg(PSP, 0x10000800)  returns 0x00 (0000ms, 0862ms total)
T00F8 001:476 JLINK_WriteReg(CFBP, 0x00000000)  returns 0x00 (0000ms, 0862ms total)
T00F8 001:476 JLINK_SetBPEx(Addr = 0x10000000, Type = 0xFFFFFFF2)  returns 0x0000000C (0000ms, 0862ms total)
T00F8 001:476 JLINK_Go() -- CPU_WriteMem(4 bytes @ 0xE0002008) -- CPU_WriteMem(4 bytes @ 0xE000200C) -- CPU_WriteMem(4 bytes @ 0xE0002010) -- CPU_WriteMem(4 bytes @ 0xE0002014) (0008ms, 0870ms total)
T00F8 001:484 JLINK_IsHalted()  returns FALSE (0001ms, 0871ms total)
T00F8 001:535 JLINK_IsHalted()  returns TRUE (0006ms, 0876ms total)
T00F8 001:541 JLINK_ReadReg(R15)  returns 0x10000000 (0000ms, 0870ms total)
T00F8 001:541 JLINK_ClrBPEx(BPHandle = 0x0000000C)  returns 0x00 (0000ms, 0870ms total)
T00F8 001:541 JLINK_ReadReg(R0)  returns 0x00000000 (0000ms, 0870ms total)
T00F8 001:542 JLINK_WriteMem(0x10000190, 0x0270 Bytes, ...) -- Data:  DD FF 0B 48 08 21 03 22 FF F7 D8 FA 01 20 B0 47 ... -- CPU_WriteMem(624 bytes @ 0x10000190)  returns 0x270 (0013ms, 0883ms total)
T00F8 001:555 JLINK_WriteMem(0x10000400, 0x0190 Bytes, ...) -- Data:  05 49 98 47 FE E7 08 BD C8 10 00 10 AA 55 AA 55 ... -- CPU_WriteMem(400 bytes @ 0x10000400)  returns 0x190 (0009ms, 0892ms total)
T00F8 001:564 JLINK_WriteReg(R0, 0x00002000)  returns 0x00 (0000ms, 0892ms total)
T00F8 001:564 JLINK_WriteReg(R1, 0x00000400)  returns 0x00 (0000ms, 0892ms total)
T00F8 001:564 JLINK_WriteReg(R2, 0x10000190)  returns 0x00 (0000ms, 0892ms total)
T00F8 001:564 JLINK_WriteReg(R3, 0x00000000)  returns 0x00 (0000ms, 0892ms total)
T00F8 001:564 JLINK_WriteReg(R4, 0x00000000)  returns 0x00 (0000ms, 0892ms total)
T00F8 001:564 JLINK_WriteReg(R5, 0x00000000)  returns 0x00 (0000ms, 0892ms total)
T00F8 001:564 JLINK_WriteReg(R6, 0x00000000)  returns 0x00 (0000ms, 0892ms total)
T00F8 001:564 JLINK_WriteReg(R7, 0x00000000)  returns 0x00 (0000ms, 0892ms total)
T00F8 001:564 JLINK_WriteReg(R8, 0x00000000)  returns 0x00 (0000ms, 0892ms total)
T00F8 001:564 JLINK_WriteReg(R9, 0x10000168)  returns 0x00 (0000ms, 0892ms total)
T00F8 001:564 JLINK_WriteReg(R10, 0x00000000)  returns 0x00 (0000ms, 0892ms total)
T00F8 001:564 JLINK_WriteReg(R11, 0x00000000)  returns 0x00 (0000ms, 0892ms total)
T00F8 001:564 JLINK_WriteReg(R12, 0x00000000)  returns 0x00 (0000ms, 0892ms total)
T00F8 001:564 JLINK_WriteReg(R13, 0x10000800)  returns 0x00 (0000ms, 0892ms total)
T00F8 001:564 JLINK_WriteReg(R14, 0x10000001)  returns 0x00 (0000ms, 0892ms total)
T00F8 001:564 JLINK_WriteReg(R15, 0x100000E6)  returns 0x00 (0000ms, 0892ms total)
T00F8 001:564 JLINK_WriteReg(XPSR, 0x01000000)  returns 0x00 (0000ms, 0892ms total)
T00F8 001:564 JLINK_WriteReg(MSP, 0x10000800)  returns 0x00 (0000ms, 0892ms total)
T00F8 001:564 JLINK_WriteReg(PSP, 0x10000800)  returns 0x00 (0000ms, 0892ms total)
T00F8 001:564 JLINK_WriteReg(CFBP, 0x00000000)  returns 0x00 (0000ms, 0892ms total)
T00F8 001:564 JLINK_SetBPEx(Addr = 0x10000000, Type = 0xFFFFFFF2)  returns 0x0000000D (0000ms, 0892ms total)
T00F8 001:564 JLINK_Go() -- CPU_WriteMem(4 bytes @ 0xE0002008) -- CPU_WriteMem(4 bytes @ 0xE000200C) -- CPU_WriteMem(4 bytes @ 0xE0002010) -- CPU_WriteMem(4 bytes @ 0xE0002014) (0008ms, 0900ms total)
T00F8 001:572 JLINK_IsHalted()  returns FALSE (0001ms, 0901ms total)
T00F8 001:623 JLINK_IsHalted()  returns TRUE (0006ms, 0906ms total)
T00F8 001:629 JLINK_ReadReg(R15)  returns 0x10000000 (0000ms, 0900ms total)
T00F8 001:629 JLINK_ClrBPEx(BPHandle = 0x0000000D)  returns 0x00 (0000ms, 0900ms total)
T00F8 001:629 JLINK_ReadReg(R0)  returns 0x00000000 (0000ms, 0900ms total)
T00F8 001:630 JLINK_WriteMem(0x10000190, 0x0270 Bytes, ...) -- Data:  FF F7 7E FB 06 1E F7 DB 32 1C 69 1C 12 48 01 F0 ... -- CPU_WriteMem(624 bytes @ 0x10000190)  returns 0x270 (0013ms, 0913ms total)
T00F8 001:643 JLINK_WriteMem(0x10000400, 0x0190 Bytes, ...) -- Data:  10 BD C0 46 CC 0C 00 10 9B 4A 00 00 A6 4A 00 00 ... -- CPU_WriteMem(400 bytes @ 0x10000400)  returns 0x190 (0009ms, 0922ms total)
T00F8 001:652 JLINK_WriteReg(R0, 0x00002400)  returns 0x00 (0000ms, 0922ms total)
T00F8 001:652 JLINK_WriteReg(R1, 0x00000400)  returns 0x00 (0000ms, 0922ms total)
T00F8 001:652 JLINK_WriteReg(R2, 0x10000190)  returns 0x00 (0000ms, 0922ms total)
T00F8 001:652 JLINK_WriteReg(R3, 0x00000000)  returns 0x00 (0000ms, 0922ms total)
T00F8 001:652 JLINK_WriteReg(R4, 0x00000000)  returns 0x00 (0000ms, 0922ms total)
T00F8 001:652 JLINK_WriteReg(R5, 0x00000000)  returns 0x00 (0000ms, 0922ms total)
T00F8 001:652 JLINK_WriteReg(R6, 0x00000000)  returns 0x00 (0000ms, 0922ms total)
T00F8 001:652 JLINK_WriteReg(R7, 0x00000000)  returns 0x00 (0000ms, 0922ms total)
T00F8 001:652 JLINK_WriteReg(R8, 0x00000000)  returns 0x00 (0000ms, 0922ms total)
T00F8 001:652 JLINK_WriteReg(R9, 0x10000168)  returns 0x00 (0000ms, 0922ms total)
T00F8 001:652 JLINK_WriteReg(R10, 0x00000000)  returns 0x00 (0000ms, 0922ms total)
T00F8 001:652 JLINK_WriteReg(R11, 0x00000000)  returns 0x00 (0000ms, 0922ms total)
T00F8 001:652 JLINK_WriteReg(R12, 0x00000000)  returns 0x00 (0000ms, 0922ms total)
T00F8 001:652 JLINK_WriteReg(R13, 0x10000800)  returns 0x00 (0000ms, 0922ms total)
T00F8 001:652 JLINK_WriteReg(R14, 0x10000001)  returns 0x00 (0000ms, 0922ms total)
T00F8 001:652 JLINK_WriteReg(R15, 0x100000E6)  returns 0x00 (0000ms, 0922ms total)
T00F8 001:652 JLINK_WriteReg(XPSR, 0x01000000)  returns 0x00 (0000ms, 0922ms total)
T00F8 001:652 JLINK_WriteReg(MSP, 0x10000800)  returns 0x00 (0000ms, 0922ms total)
T00F8 001:652 JLINK_WriteReg(PSP, 0x10000800)  returns 0x00 (0000ms, 0922ms total)
T00F8 001:652 JLINK_WriteReg(CFBP, 0x00000000)  returns 0x00 (0000ms, 0922ms total)
T00F8 001:652 JLINK_SetBPEx(Addr = 0x10000000, Type = 0xFFFFFFF2)  returns 0x0000000E (0000ms, 0922ms total)
T00F8 001:652 JLINK_Go() -- CPU_WriteMem(4 bytes @ 0xE0002008) -- CPU_WriteMem(4 bytes @ 0xE000200C) -- CPU_WriteMem(4 bytes @ 0xE0002010) -- CPU_WriteMem(4 bytes @ 0xE0002014) (0008ms, 0930ms total)
T00F8 001:660 JLINK_IsHalted()  returns FALSE (0001ms, 0931ms total)
T00F8 001:712 JLINK_IsHalted()  returns TRUE (0005ms, 0935ms total)
T00F8 001:717 JLINK_ReadReg(R15)  returns 0x10000000 (0000ms, 0930ms total)
T00F8 001:717 JLINK_ClrBPEx(BPHandle = 0x0000000E)  returns 0x00 (0000ms, 0930ms total)
T00F8 001:717 JLINK_ReadReg(R0)  returns 0x00000000 (0001ms, 0931ms total)
T00F8 001:718 JLINK_WriteMem(0x10000190, 0x0270 Bytes, ...) -- Data:  82 42 04 D0 98 70 FF F7 41 FF FE F7 E5 FC 08 BD ... -- CPU_WriteMem(624 bytes @ 0x10000190)  returns 0x270 (0013ms, 0944ms total)
T00F8 001:731 JLINK_WriteMem(0x10000400, 0x0190 Bytes, ...) -- Data:  1A 1C 1F 2D 00 DD 1F 25 10 68 01 24 AC 40 A0 43 ... -- CPU_WriteMem(400 bytes @ 0x10000400)  returns 0x190 (0009ms, 0953ms total)
T00F8 001:740 JLINK_WriteReg(R0, 0x00002800)  returns 0x00 (0000ms, 0953ms total)
T00F8 001:740 JLINK_WriteReg(R1, 0x00000400)  returns 0x00 (0000ms, 0953ms total)
T00F8 001:740 JLINK_WriteReg(R2, 0x10000190)  returns 0x00 (0000ms, 0953ms total)
T00F8 001:740 JLINK_WriteReg(R3, 0x00000000)  returns 0x00 (0000ms, 0953ms total)
T00F8 001:740 JLINK_WriteReg(R4, 0x00000000)  returns 0x00 (0000ms, 0953ms total)
T00F8 001:740 JLINK_WriteReg(R5, 0x00000000)  returns 0x00 (0000ms, 0953ms total)
T00F8 001:740 JLINK_WriteReg(R6, 0x00000000)  returns 0x00 (0000ms, 0953ms total)
T00F8 001:740 JLINK_WriteReg(R7, 0x00000000)  returns 0x00 (0000ms, 0953ms total)
T00F8 001:740 JLINK_WriteReg(R8, 0x00000000)  returns 0x00 (0000ms, 0953ms total)
T00F8 001:740 JLINK_WriteReg(R9, 0x10000168)  returns 0x00 (0000ms, 0953ms total)
T00F8 001:740 JLINK_WriteReg(R10, 0x00000000)  returns 0x00 (0000ms, 0953ms total)
T00F8 001:740 JLINK_WriteReg(R11, 0x00000000)  returns 0x00 (0000ms, 0953ms total)
T00F8 001:740 JLINK_WriteReg(R12, 0x00000000)  returns 0x00 (0000ms, 0953ms total)
T00F8 001:740 JLINK_WriteReg(R13, 0x10000800)  returns 0x00 (0000ms, 0953ms total)
T00F8 001:740 JLINK_WriteReg(R14, 0x10000001)  returns 0x00 (0000ms, 0953ms total)
T00F8 001:740 JLINK_WriteReg(R15, 0x100000E6)  returns 0x00 (0000ms, 0953ms total)
T00F8 001:740 JLINK_WriteReg(XPSR, 0x01000000)  returns 0x00 (0000ms, 0953ms total)
T00F8 001:740 JLINK_WriteReg(MSP, 0x10000800)  returns 0x00 (0000ms, 0953ms total)
T00F8 001:740 JLINK_WriteReg(PSP, 0x10000800)  returns 0x00 (0000ms, 0953ms total)
T00F8 001:740 JLINK_WriteReg(CFBP, 0x00000000)  returns 0x00 (0000ms, 0953ms total)
T00F8 001:740 JLINK_SetBPEx(Addr = 0x10000000, Type = 0xFFFFFFF2)  returns 0x0000000F (0000ms, 0953ms total)
T00F8 001:740 JLINK_Go() -- CPU_WriteMem(4 bytes @ 0xE0002008) -- CPU_WriteMem(4 bytes @ 0xE000200C) -- CPU_WriteMem(4 bytes @ 0xE0002010) -- CPU_WriteMem(4 bytes @ 0xE0002014) (0008ms, 0961ms total)
T00F8 001:748 JLINK_IsHalted()  returns FALSE (0001ms, 0962ms total)
T00F8 001:800 JLINK_IsHalted()  returns TRUE (0006ms, 0967ms total)
T00F8 001:806 JLINK_ReadReg(R15)  returns 0x10000000 (0000ms, 0961ms total)
T00F8 001:806 JLINK_ClrBPEx(BPHandle = 0x0000000F)  returns 0x00 (0000ms, 0961ms total)
T00F8 001:806 JLINK_ReadReg(R0)  returns 0x00000000 (0000ms, 0961ms total)
T00F8 001:806 JLINK_WriteMem(0x10000190, 0x0270 Bytes, ...) -- Data:  6F 4C 00 00 4E 4C 00 00 51 4C 00 00 A2 4C 00 00 ... -- CPU_WriteMem(624 bytes @ 0x10000190)  returns 0x270 (0013ms, 0974ms total)
T00F8 001:819 JLINK_WriteMem(0x10000400, 0x0190 Bytes, ...) -- Data:  1A 70 03 2A 24 D9 18 4B 1A 78 01 2A 09 D1 58 78 ... -- CPU_WriteMem(400 bytes @ 0x10000400)  returns 0x190 (0008ms, 0982ms total)
T00F8 001:827 JLINK_WriteReg(R0, 0x00002C00)  returns 0x00 (0000ms, 0982ms total)
T00F8 001:827 JLINK_WriteReg(R1, 0x00000400)  returns 0x00 (0000ms, 0982ms total)
T00F8 001:827 JLINK_WriteReg(R2, 0x10000190)  returns 0x00 (0000ms, 0982ms total)
T00F8 001:827 JLINK_WriteReg(R3, 0x00000000)  returns 0x00 (0000ms, 0982ms total)
T00F8 001:827 JLINK_WriteReg(R4, 0x00000000)  returns 0x00 (0000ms, 0982ms total)
T00F8 001:827 JLINK_WriteReg(R5, 0x00000000)  returns 0x00 (0000ms, 0982ms total)
T00F8 001:827 JLINK_WriteReg(R6, 0x00000000)  returns 0x00 (0000ms, 0982ms total)
T00F8 001:827 JLINK_WriteReg(R7, 0x00000000)  returns 0x00 (0000ms, 0982ms total)
T00F8 001:827 JLINK_WriteReg(R8, 0x00000000)  returns 0x00 (0000ms, 0982ms total)
T00F8 001:827 JLINK_WriteReg(R9, 0x10000168)  returns 0x00 (0000ms, 0982ms total)
T00F8 001:827 JLINK_WriteReg(R10, 0x00000000)  returns 0x00 (0000ms, 0982ms total)
T00F8 001:827 JLINK_WriteReg(R11, 0x00000000)  returns 0x00 (0000ms, 0982ms total)
T00F8 001:827 JLINK_WriteReg(R12, 0x00000000)  returns 0x00 (0000ms, 0982ms total)
T00F8 001:827 JLINK_WriteReg(R13, 0x10000800)  returns 0x00 (0000ms, 0982ms total)
T00F8 001:827 JLINK_WriteReg(R14, 0x10000001)  returns 0x00 (0000ms, 0982ms total)
T00F8 001:827 JLINK_WriteReg(R15, 0x100000E6)  returns 0x00 (0000ms, 0982ms total)
T00F8 001:827 JLINK_WriteReg(XPSR, 0x01000000)  returns 0x00 (0000ms, 0982ms total)
T00F8 001:827 JLINK_WriteReg(MSP, 0x10000800)  returns 0x00 (0000ms, 0982ms total)
T00F8 001:827 JLINK_WriteReg(PSP, 0x10000800)  returns 0x00 (0000ms, 0982ms total)
T00F8 001:827 JLINK_WriteReg(CFBP, 0x00000000)  returns 0x00 (0000ms, 0982ms total)
T00F8 001:827 JLINK_SetBPEx(Addr = 0x10000000, Type = 0xFFFFFFF2)  returns 0x00000010 (0000ms, 0982ms total)
T00F8 001:827 JLINK_Go() -- CPU_WriteMem(4 bytes @ 0xE0002008) -- CPU_WriteMem(4 bytes @ 0xE000200C) -- CPU_WriteMem(4 bytes @ 0xE0002010) -- CPU_WriteMem(4 bytes @ 0xE0002014) (0008ms, 0990ms total)
T00F8 001:835 JLINK_IsHalted()  returns FALSE (0001ms, 0991ms total)
T00F8 001:887 JLINK_IsHalted()  returns TRUE (0006ms, 0996ms total)
T00F8 001:893 JLINK_ReadReg(R15)  returns 0x10000000 (0000ms, 0990ms total)
T00F8 001:893 JLINK_ClrBPEx(BPHandle = 0x00000010)  returns 0x00 (0000ms, 0990ms total)
T00F8 001:893 JLINK_ReadReg(R0)  returns 0x00000000 (0000ms, 0990ms total)
T00F8 001:893 JLINK_WriteMem(0x10000190, 0x0270 Bytes, ...) -- Data:  00 29 11 D1 24 02 A0 B2 1A E0 14 22 6A 43 D8 68 ... -- CPU_WriteMem(624 bytes @ 0x10000190)  returns 0x270 (0013ms, 1003ms total)
T00F8 001:906 JLINK_WriteMem(0x10000400, 0x0190 Bytes, ...) -- Data:  02 D1 01 98 01 F0 14 F8 48 20 29 1C 01 F0 06 F8 ... -- CPU_WriteMem(400 bytes @ 0x10000400)  returns 0x190 (0008ms, 1011ms total)
T00F8 001:914 JLINK_WriteReg(R0, 0x00003000)  returns 0x00 (0000ms, 1011ms total)
T00F8 001:914 JLINK_WriteReg(R1, 0x00000400)  returns 0x00 (0000ms, 1011ms total)
T00F8 001:914 JLINK_WriteReg(R2, 0x10000190)  returns 0x00 (0000ms, 1011ms total)
